T166C 000:006.730   SEGGER J-Link V7.56b Log File
T166C 000:006.919   DLL Compiled: Oct 18 2021 16:30:47
T166C 000:006.926   Logging started @ 2023-02-13 08:24
T166C 000:006.933 - 6.936ms
T166C 000:006.945 JLINK_SetWarnOutHandler(...)
T166C 000:006.954 - 0.030ms
T166C 000:006.980 JLINK_OpenEx(...)
T166C 000:010.117   Firmware: J-Link V9 compiled May  7 2021 16:26:12
T166C 000:010.925   Firmware: J-Link V9 compiled May  7 2021 16:26:12
T166C 000:011.250   Decompressing FW timestamp took 272 us
T166C 000:021.432   Hardware: V9.70
T166C 000:021.456   S/N: 150711155
T166C 000:021.465   OEM: SEGGER
T166C 000:021.474   Feature(s): GDB, RDI, FlashBP, FlashDL, JFlash
T166C 000:024.094   TELNET listener socket opened on port 19021
T166C 000:024.206   WEBSRV WEBSRV_Init(): Starting webserver thread(s)
T166C 000:024.398   WEBSRV Webserver running on local port 19080
T166C 000:045.527 - 38.577ms returns "O.K."
T166C 000:045.589 JLINK_GetEmuCaps()
T166C 000:045.597 - 0.010ms returns 0xB9FF7BBF
T166C 000:045.610 JLINK_TIF_GetAvailable(...)
T166C 000:046.009 - 0.406ms
T166C 000:046.027 JLINK_SetErrorOutHandler(...)
T166C 000:046.033 - 0.009ms
T166C 000:046.082 JLINK_ExecCommand("ProjectFile = "F:\Embedded\STM32\STM32\STM32F407\HAL_Lib\DHT11_OneNet_NoOS\MDK-ARM\JLinkSettings.ini"", ...). 
T166C 000:071.468   Ref file found at: D:\Keil5\keil5forSTM32\ARM\Segger\JLinkDevices.ref
T166C 000:081.009   XML referenced by ref file: D:\Keil5\JLink_Driver\JLinkDevices.xml
T166C 000:081.956   D:\Keil5\JLink_Driver\JLinkDevices.xml evaluated successfully.
T166C 000:092.888 - 46.816ms returns 0x00
T166C 000:096.334 JLINK_ExecCommand("Device = STM32F407ZGTx", ...). 
T166C 000:099.615   Device "STM32F407ZG" selected.
T166C 000:099.938 - 3.588ms returns 0x00
T166C 000:099.954 JLINK_ExecCommand("DisableConnectionTimeout", ...). 
T166C 000:099.987 - 0.020ms returns 0x01
T166C 000:100.011 JLINK_GetHardwareVersion()
T166C 000:100.017 - 0.028ms returns 97000
T166C 000:100.045 JLINK_GetDLLVersion()
T166C 000:100.051 - 0.009ms returns 75602
T166C 000:100.072 JLINK_GetOEMString(...)
T166C 000:100.080 JLINK_GetFirmwareString(...)
T166C 000:100.086 - 0.008ms
T166C 000:110.477 JLINK_GetDLLVersion()
T166C 000:110.499 - 0.025ms returns 75602
T166C 000:110.508 JLINK_GetCompileDateTime()
T166C 000:110.514 - 0.009ms
T166C 000:113.886 JLINK_GetFirmwareString(...)
T166C 000:113.927 - 0.044ms
T166C 000:116.727 JLINK_GetHardwareVersion()
T166C 000:116.745 - 0.021ms returns 97000
T166C 000:121.264 JLINK_GetSN()
T166C 000:121.285 - 0.024ms returns 150711155
T166C 000:123.979 JLINK_GetOEMString(...)
T166C 000:129.235 JLINK_TIF_Select(JLINKARM_TIF_SWD)
T166C 000:132.527 - 3.310ms returns 0x00
T166C 000:132.556 JLINK_HasError()
T166C 000:132.602 JLINK_SetSpeed(5000)
T166C 000:133.171 - 0.584ms
T166C 000:133.197 JLINK_GetId()
T166C 000:137.055   InitTarget() start
T166C 000:137.080    J-Link Script File: Executing InitTarget()
T166C 000:158.441   InitTarget() end
T166C 000:163.639   Found SW-DP with ID 0x2BA01477
T166C 000:170.986   DPIDR: 0x2BA01477
T166C 000:173.647   Scanning AP map to find all available APs
T166C 000:180.332   AP[1]: Stopped AP scan as end of AP map has been reached
T166C 000:185.902   AP[0]: AHB-AP (IDR: 0x24770011)
T166C 000:188.982   Iterating through AP map to find AHB-AP to use
T166C 000:194.673   AP[0]: Core found
T166C 000:198.311   AP[0]: AHB-AP ROM base: 0xE00FF000
T166C 000:202.466   CPUID register: 0x410FC241. Implementer code: 0x41 (ARM)
T166C 000:205.164   Found Cortex-M4 r0p1, Little endian.
T166C 000:308.271   -- Max. mem block: 0x00010C40
T166C 000:308.944   CPU_ReadMem(4 bytes @ 0xE000EDF0)
T166C 000:310.120   CPU_ReadMem(4 bytes @ 0xE0002000)
T166C 000:322.137   FPUnit: 6 code (BP) slots and 2 literal slots
T166C 000:322.199   CPU_ReadMem(4 bytes @ 0xE000EDFC)
T166C 000:323.095   CPU_WriteMem(4 bytes @ 0xE000EDFC)
T166C 000:323.990   CPU_ReadMem(4 bytes @ 0xE0001000)
T166C 000:324.750   CPU_WriteMem(4 bytes @ 0xE0001000)
T166C 000:325.616   CPU_ReadMem(4 bytes @ 0xE000ED88)
T166C 000:326.582   CPU_WriteMem(4 bytes @ 0xE000ED88)
T166C 000:327.471   CPU_ReadMem(4 bytes @ 0xE000ED88)
T166C 000:328.323   CPU_WriteMem(4 bytes @ 0xE000ED88)
T166C 000:334.246   CoreSight components:
T166C 000:338.406   ROMTbl[0] @ E00FF000
T166C 000:338.434   CPU_ReadMem(64 bytes @ 0xE00FF000)
T166C 000:339.386   CPU_ReadMem(32 bytes @ 0xE000EFE0)
T166C 000:344.261   [0][0]: E000E000 CID B105E00D PID 000BB00C SCS-M7
T166C 000:344.306   CPU_ReadMem(32 bytes @ 0xE0001FE0)
T166C 000:348.706   [0][1]: E0001000 CID B105E00D PID 003BB002 DWT
T166C 000:348.734   CPU_ReadMem(32 bytes @ 0xE0002FE0)
T166C 000:353.150   [0][2]: E0002000 CID B105E00D PID 002BB003 FPB
T166C 000:353.180   CPU_ReadMem(32 bytes @ 0xE0000FE0)
T166C 000:357.270   [0][3]: E0000000 CID B105E00D PID 003BB001 ITM
T166C 000:357.296   CPU_ReadMem(32 bytes @ 0xE0040FE0)
T166C 000:361.927   [0][4]: E0040000 CID B105900D PID 000BB9A1 TPIU
T166C 000:361.956   CPU_ReadMem(32 bytes @ 0xE0041FE0)
T166C 000:366.048   [0][5]: E0041000 CID B105900D PID 000BB925 ETM
T166C 000:367.078 - 233.897ms returns 0x2BA01477
T166C 000:367.110 JLINK_GetDLLVersion()
T166C 000:367.117 - 0.009ms returns 75602
T166C 000:367.125 JLINK_CORE_GetFound()
T166C 000:367.131 - 0.009ms returns 0xE0000FF
T166C 000:367.140 JLINK_GetDebugInfo(0x100 = JLINKARM_ROM_TABLE_ADDR_INDEX)
T166C 000:367.148   Value=0xE00FF000
T166C 000:367.157 - 0.020ms returns 0
T166C 000:371.685 JLINK_GetDebugInfo(0x100 = JLINKARM_ROM_TABLE_ADDR_INDEX)
T166C 000:371.729   Value=0xE00FF000
T166C 000:371.759 - 0.077ms returns 0
T166C 000:371.768 JLINK_GetDebugInfo(0x101 = JLINKARM_DEBUG_INFO_ETM_ADDR_INDEX)
T166C 000:371.775   Value=0xE0041000
T166C 000:371.784 - 0.019ms returns 0
T166C 000:371.814 JLINK_ReadMemEx(0xE0041FD0, 0x20 Bytes, Flags = 0x02000004)
T166C 000:371.906   CPU_ReadMem(32 bytes @ 0xE0041FD0)
T166C 000:372.830   Data:  04 00 00 00 00 00 00 00 00 00 00 00 00 00 00 00 ...
T166C 000:372.855 - 1.044ms returns 32 (0x20)
T166C 000:372.868 JLINK_GetDebugInfo(0x102 = JLINKARM_DEBUG_INFO_MTB_ADDR_INDEX)
T166C 000:372.876   Value=0x00000000
T166C 000:372.884 - 0.019ms returns 0
T166C 000:372.892 JLINK_GetDebugInfo(0x103 = JLINKARM_DEBUG_INFO_TPIU_ADDR_INDEX)
T166C 000:372.899   Value=0xE0040000
T166C 000:372.907 - 0.017ms returns 0
T166C 000:372.915 JLINK_GetDebugInfo(0x104 = JLINKARM_DEBUG_INFO_ITM_ADDR_INDEX)
T166C 000:372.921   Value=0xE0000000
T166C 000:372.929 - 0.017ms returns 0
T166C 000:372.937 JLINK_GetDebugInfo(0x105 = JLINKARM_DEBUG_INFO_DWT_ADDR_INDEX)
T166C 000:372.943   Value=0xE0001000
T166C 000:372.952 - 0.017ms returns 0
T166C 000:372.960 JLINK_GetDebugInfo(0x106 = JLINKARM_DEBUG_INFO_FPB_ADDR_INDEX)
T166C 000:372.966   Value=0xE0002000
T166C 000:372.974 - 0.017ms returns 0
T166C 000:372.982 JLINK_GetDebugInfo(0x107 = JLINKARM_DEBUG_INFO_NVIC_ADDR_INDEX)
T166C 000:372.988   Value=0xE000E000
T166C 000:372.997 - 0.017ms returns 0
T166C 000:373.004 JLINK_GetDebugInfo(0x10C = JLINKARM_DEBUG_INFO_DBG_ADDR_INDEX)
T166C 000:373.010   Value=0xE000EDF0
T166C 000:373.020 - 0.019ms returns 0
T166C 000:373.028 JLINK_GetDebugInfo(0x01 = Unknown)
T166C 000:373.035   Value=0x00000001
T166C 000:373.043 - 0.017ms returns 0
T166C 000:373.051 JLINK_ReadMemU32(0xE000ED00, 0x1 Items)
T166C 000:373.065   CPU_ReadMem(4 bytes @ 0xE000ED00)
T166C 000:374.032   Data:  41 C2 0F 41
T166C 000:374.049   Debug reg: CPUID
T166C 000:374.057 - 1.009ms returns 1 (0x1)
T166C 000:374.069 JLINK_GetDebugInfo(0x10F = JLINKARM_DEBUG_INFO_HAS_CORTEX_M_SECURITY_EXT_INDEX)
T166C 000:374.076   Value=0x00000000
T166C 000:374.084 - 0.018ms returns 0
T166C 000:374.093 JLINK_HasError()
T166C 000:374.102 JLINK_SetResetType(JLINKARM_CM3_RESET_TYPE_NORMAL)
T166C 000:374.108 - 0.009ms returns JLINKARM_CM3_RESET_TYPE_NORMAL
T166C 000:374.116 JLINK_Reset()
T166C 000:374.134   CPU is running
T166C 000:374.145   CPU_WriteMem(4 bytes @ 0xE000EDF0)
T166C 000:375.028   CPU is running
T166C 000:375.044   CPU_WriteMem(4 bytes @ 0xE000EDFC)
T166C 000:379.701   Reset: Halt core after reset via DEMCR.VC_CORERESET.
T166C 000:384.924   Reset: Reset device via AIRCR.SYSRESETREQ.
T166C 000:384.950   CPU is running
T166C 000:384.984   CPU_WriteMem(4 bytes @ 0xE000ED0C)
T166C 000:438.967   CPU_ReadMem(4 bytes @ 0xE000EDF0)
T166C 000:439.895   CPU_ReadMem(4 bytes @ 0xE000EDF0)
T166C 000:440.997   CPU is running
T166C 000:441.033   CPU_WriteMem(4 bytes @ 0xE000EDF0)
T166C 000:442.014   CPU is running
T166C 000:442.054   CPU_WriteMem(4 bytes @ 0xE000EDFC)
T166C 000:448.003   CPU_ReadMem(4 bytes @ 0xE000EDF0)
T166C 000:451.993   CPU_WriteMem(4 bytes @ 0xE0002000)
T166C 000:452.786   CPU_ReadMem(4 bytes @ 0xE000EDFC)
T166C 000:453.590   CPU_ReadMem(4 bytes @ 0xE0001000)
T166C 000:454.410 - 80.317ms
T166C 000:454.466 JLINK_Halt()
T166C 000:454.485 - 0.026ms returns 0x00
T166C 000:454.509 JLINK_ReadMemU32(0xE000EDF0, 0x1 Items)
T166C 000:454.542   CPU_ReadMem(4 bytes @ 0xE000EDF0)
T166C 000:455.234   Data:  03 00 03 00
T166C 000:455.274   Debug reg: DHCSR
T166C 000:455.297 - 0.797ms returns 1 (0x1)
T166C 000:455.342 JLINK_WriteU32_64(0xE000EDF0, 0xA05F0003)
T166C 000:455.362   Debug reg: DHCSR
T166C 000:456.012   CPU_WriteMem(4 bytes @ 0xE000EDF0)
T166C 000:456.780 - 1.467ms returns 0 (0x00000000)
T166C 000:456.847 JLINK_WriteU32_64(0xE000EDFC, 0x01000000)
T166C 000:456.873   Debug reg: DEMCR
T166C 000:456.926   CPU_WriteMem(4 bytes @ 0xE000EDFC)
T166C 000:457.775 - 0.958ms returns 0 (0x00000000)
T166C 000:482.416 JLINK_GetHWStatus(...)
T166C 000:483.146 - 0.741ms returns 0
T166C 000:491.713 JLINK_GetNumBPUnits(Type = 0xFFFFFF00)
T166C 000:491.735 - 0.025ms returns 0x06
T166C 000:491.744 JLINK_GetNumBPUnits(Type = 0xF0)
T166C 000:491.751 - 0.009ms returns 0x2000
T166C 000:491.759 JLINK_GetNumWPUnits()
T166C 000:491.765 - 0.008ms returns 4
T166C 000:501.777 JLINK_GetSpeed()
T166C 000:501.800 - 0.025ms returns 4000
T166C 000:507.095 JLINK_ReadMemU32(0xE000E004, 0x1 Items)
T166C 000:507.124   CPU_ReadMem(4 bytes @ 0xE000E004)
T166C 000:508.077   Data:  02 00 00 00
T166C 000:508.094 - 1.002ms returns 1 (0x1)
T166C 000:508.106 JLINK_ReadMemU32(0xE000E004, 0x1 Items)
T166C 000:508.119   CPU_ReadMem(4 bytes @ 0xE000E004)
T166C 000:508.699   Data:  02 00 00 00
T166C 000:508.713 - 0.610ms returns 1 (0x1)
T166C 000:508.724 JLINK_WriteMemEx(0xE0001000, 0x0000001C Bytes, Flags = 0x02000004)
T166C 000:508.732   Data:  01 00 00 00 00 00 00 00 00 00 00 00 00 00 00 00 ...
T166C 000:508.748   CPU_WriteMem(28 bytes @ 0xE0001000)
T166C 000:509.807 - 1.159ms returns 0x1C
T166C 000:509.979 JLINK_Halt()
T166C 000:510.011 - 0.054ms returns 0x00
T166C 000:510.040 JLINK_IsHalted()
T166C 000:510.062 - 0.024ms returns TRUE
T166C 000:518.514 JLINK_WriteMem(0x20000000, 0x180 Bytes, ...)
T166C 000:518.529   Data:  00 BE 0A E0 0D 78 2D 06 68 40 08 24 40 00 00 D3 ...
T166C 000:518.830   CPU_WriteMem(384 bytes @ 0x20000000)
T166C 000:521.493 - 2.996ms returns 0x180
T166C 000:521.554 JLINK_HasError()
T166C 000:521.566 JLINK_WriteReg(R0, 0x08000000)
T166C 000:521.576 - 0.013ms returns 0
T166C 000:521.584 JLINK_WriteReg(R1, 0x007A1200)
T166C 000:521.591 - 0.009ms returns 0
T166C 000:521.599 JLINK_WriteReg(R2, 0x00000001)
T166C 000:521.605 - 0.009ms returns 0
T166C 000:521.613 JLINK_WriteReg(R3, 0x00000000)
T166C 000:521.620 - 0.009ms returns 0
T166C 000:521.628 JLINK_WriteReg(R4, 0x00000000)
T166C 000:521.634 - 0.009ms returns 0
T166C 000:521.642 JLINK_WriteReg(R5, 0x00000000)
T166C 000:521.648 - 0.009ms returns 0
T166C 000:521.656 JLINK_WriteReg(R6, 0x00000000)
T166C 000:521.663 - 0.009ms returns 0
T166C 000:521.671 JLINK_WriteReg(R7, 0x00000000)
T166C 000:521.677 - 0.009ms returns 0
T166C 000:521.685 JLINK_WriteReg(R8, 0x00000000)
T166C 000:521.698 - 0.016ms returns 0
T166C 000:521.706 JLINK_WriteReg(R9, 0x2000017C)
T166C 000:521.712 - 0.009ms returns 0
T166C 000:521.720 JLINK_WriteReg(R10, 0x00000000)
T166C 000:521.727 - 0.009ms returns 0
T166C 000:521.735 JLINK_WriteReg(R11, 0x00000000)
T166C 000:521.741 - 0.009ms returns 0
T166C 000:521.749 JLINK_WriteReg(R12, 0x00000000)
T166C 000:521.758 - 0.014ms returns 0
T166C 000:521.768 JLINK_WriteReg(R13 (SP), 0x20001000)
T166C 000:521.775 - 0.010ms returns 0
T166C 000:521.783 JLINK_WriteReg(R14, 0x20000001)
T166C 000:521.790 - 0.009ms returns 0
T166C 000:521.798 JLINK_WriteReg(R15 (PC), 0x20000054)
T166C 000:521.804 - 0.009ms returns 0
T166C 000:521.812 JLINK_WriteReg(XPSR, 0x01000000)
T166C 000:521.818 - 0.009ms returns 0
T166C 000:521.826 JLINK_WriteReg(MSP, 0x20001000)
T166C 000:521.833 - 0.009ms returns 0
T166C 000:521.841 JLINK_WriteReg(PSP, 0x20001000)
T166C 000:521.847 - 0.009ms returns 0
T166C 000:521.855 JLINK_WriteReg(CFBP, 0x00000000)
T166C 000:521.861 - 0.009ms returns 0
T166C 000:521.870 JLINK_SetBPEx(Addr = 0x20000000, Type = 0xFFFFFFF2)
T166C 000:521.884   CPU_ReadMem(2 bytes @ 0x20000000)
T166C 000:522.929 - 1.076ms returns 0x00000001
T166C 000:522.956 JLINK_Go()
T166C 000:522.969   CPU_WriteMem(2 bytes @ 0x20000000)
T166C 000:524.073   CPU_ReadMem(4 bytes @ 0xE0001000)
T166C 000:525.107   CPU_WriteMem(4 bytes @ 0xE0002008)
T166C 000:525.128   CPU_WriteMem(4 bytes @ 0xE000200C)
T166C 000:525.138   CPU_WriteMem(4 bytes @ 0xE0002010)
T166C 000:525.147   CPU_WriteMem(4 bytes @ 0xE0002014)
T166C 000:525.156   CPU_WriteMem(4 bytes @ 0xE0002018)
T166C 000:525.165   CPU_WriteMem(4 bytes @ 0xE000201C)
T166C 000:526.928   CPU_WriteMem(4 bytes @ 0xE0001004)
T166C 000:530.488 - 7.548ms
T166C 000:530.515 JLINK_IsHalted()
T166C 000:533.310   CPU_ReadMem(2 bytes @ 0x20000000)
T166C 000:534.215 - 3.708ms returns TRUE
T166C 000:534.233 JLINK_ReadReg(R15 (PC))
T166C 000:534.243 - 0.013ms returns 0x20000000
T166C 000:534.253 JLINK_ClrBPEx(BPHandle = 0x00000001)
T166C 000:534.260 - 0.011ms returns 0x00
T166C 000:534.269 JLINK_ReadReg(R0)
T166C 000:534.276 - 0.010ms returns 0x00000000
T166C 000:534.642 JLINK_HasError()
T166C 000:534.657 JLINK_WriteReg(R0, 0x08000000)
T166C 000:534.666 - 0.012ms returns 0
T166C 000:534.675 JLINK_WriteReg(R1, 0x00004000)
T166C 000:534.682 - 0.010ms returns 0
T166C 000:534.691 JLINK_WriteReg(R2, 0x000000FF)
T166C 000:534.697 - 0.010ms returns 0
T166C 000:534.706 JLINK_WriteReg(R3, 0x00000000)
T166C 000:534.713 - 0.010ms returns 0
T166C 000:534.725 JLINK_WriteReg(R4, 0x00000000)
T166C 000:534.732 - 0.010ms returns 0
T166C 000:534.742 JLINK_WriteReg(R5, 0x00000000)
T166C 000:534.748 - 0.010ms returns 0
T166C 000:534.758 JLINK_WriteReg(R6, 0x00000000)
T166C 000:534.765 - 0.010ms returns 0
T166C 000:534.775 JLINK_WriteReg(R7, 0x00000000)
T166C 000:534.782 - 0.010ms returns 0
T166C 000:534.792 JLINK_WriteReg(R8, 0x00000000)
T166C 000:534.799 - 0.010ms returns 0
T166C 000:534.809 JLINK_WriteReg(R9, 0x2000017C)
T166C 000:534.815 - 0.010ms returns 0
T166C 000:534.825 JLINK_WriteReg(R10, 0x00000000)
T166C 000:534.832 - 0.010ms returns 0
T166C 000:534.840 JLINK_WriteReg(R11, 0x00000000)
T166C 000:534.847 - 0.010ms returns 0
T166C 000:534.855 JLINK_WriteReg(R12, 0x00000000)
T166C 000:534.862 - 0.009ms returns 0
T166C 000:534.870 JLINK_WriteReg(R13 (SP), 0x20001000)
T166C 000:534.878 - 0.010ms returns 0
T166C 000:534.888 JLINK_WriteReg(R14, 0x20000001)
T166C 000:534.895 - 0.010ms returns 0
T166C 000:534.905 JLINK_WriteReg(R15 (PC), 0x20000020)
T166C 000:534.911 - 0.010ms returns 0
T166C 000:534.921 JLINK_WriteReg(XPSR, 0x01000000)
T166C 000:534.928 - 0.010ms returns 0
T166C 000:534.938 JLINK_WriteReg(MSP, 0x20001000)
T166C 000:534.945 - 0.010ms returns 0
T166C 000:534.955 JLINK_WriteReg(PSP, 0x20001000)
T166C 000:534.961 - 0.010ms returns 0
T166C 000:534.971 JLINK_WriteReg(CFBP, 0x00000000)
T166C 000:534.978 - 0.010ms returns 0
T166C 000:534.988 JLINK_SetBPEx(Addr = 0x20000000, Type = 0xFFFFFFF2)
T166C 000:534.996 - 0.011ms returns 0x00000002
T166C 000:535.005 JLINK_Go()
T166C 000:535.019   CPU_ReadMem(4 bytes @ 0xE0001000)
T166C 000:538.920 - 3.923ms
T166C 000:538.939 JLINK_IsHalted()
T166C 000:542.118   CPU_ReadMem(2 bytes @ 0x20000000)
T166C 000:542.953 - 4.022ms returns TRUE
T166C 000:542.973 JLINK_ReadReg(R15 (PC))
T166C 000:542.986 - 0.073ms returns 0x20000000
T166C 000:543.057 JLINK_ClrBPEx(BPHandle = 0x00000002)
T166C 000:543.065 - 0.011ms returns 0x00
T166C 000:543.074 JLINK_ReadReg(R0)
T166C 000:543.081 - 0.010ms returns 0x00000001
T166C 000:543.091 JLINK_HasError()
T166C 000:543.177 JLINK_WriteReg(R0, 0x08000000)
T166C 000:543.192 - 0.019ms returns 0
T166C 000:543.202 JLINK_WriteReg(R1, 0x00004000)
T166C 000:543.209 - 0.010ms returns 0
T166C 000:543.218 JLINK_WriteReg(R2, 0x000000FF)
T166C 000:543.225 - 0.010ms returns 0
T166C 000:543.233 JLINK_WriteReg(R3, 0x00000000)
T166C 000:543.240 - 0.010ms returns 0
T166C 000:543.248 JLINK_WriteReg(R4, 0x00000000)
T166C 000:543.255 - 0.009ms returns 0
T166C 000:543.263 JLINK_WriteReg(R5, 0x00000000)
T166C 000:543.270 - 0.010ms returns 0
T166C 000:543.279 JLINK_WriteReg(R6, 0x00000000)
T166C 000:543.285 - 0.009ms returns 0
T166C 000:543.294 JLINK_WriteReg(R7, 0x00000000)
T166C 000:543.300 - 0.010ms returns 0
T166C 000:543.309 JLINK_WriteReg(R8, 0x00000000)
T166C 000:543.316 - 0.010ms returns 0
T166C 000:543.324 JLINK_WriteReg(R9, 0x2000017C)
T166C 000:543.331 - 0.010ms returns 0
T166C 000:543.339 JLINK_WriteReg(R10, 0x00000000)
T166C 000:543.346 - 0.010ms returns 0
T166C 000:543.354 JLINK_WriteReg(R11, 0x00000000)
T166C 000:543.361 - 0.010ms returns 0
T166C 000:543.370 JLINK_WriteReg(R12, 0x00000000)
T166C 000:543.376 - 0.009ms returns 0
T166C 000:543.385 JLINK_WriteReg(R13 (SP), 0x20001000)
T166C 000:543.392 - 0.010ms returns 0
T166C 000:543.401 JLINK_WriteReg(R14, 0x20000001)
T166C 000:543.407 - 0.010ms returns 0
T166C 000:543.416 JLINK_WriteReg(R15 (PC), 0x200000BC)
T166C 000:543.423 - 0.010ms returns 0
T166C 000:543.431 JLINK_WriteReg(XPSR, 0x01000000)
T166C 000:543.438 - 0.010ms returns 0
T166C 000:543.446 JLINK_WriteReg(MSP, 0x20001000)
T166C 000:543.453 - 0.010ms returns 0
T166C 000:543.462 JLINK_WriteReg(PSP, 0x20001000)
T166C 000:543.468 - 0.010ms returns 0
T166C 000:543.477 JLINK_WriteReg(CFBP, 0x00000000)
T166C 000:543.484 - 0.009ms returns 0
T166C 000:543.492 JLINK_SetBPEx(Addr = 0x20000000, Type = 0xFFFFFFF2)
T166C 000:543.500 - 0.011ms returns 0x00000003
T166C 000:543.509 JLINK_Go()
T166C 000:543.523   CPU_ReadMem(4 bytes @ 0xE0001000)
T166C 000:546.966 - 3.472ms
T166C 000:546.991 JLINK_IsHalted()
T166C 000:547.790 - 0.807ms returns FALSE
T166C 000:547.808 JLINK_HasError()
T166C 000:606.464 JLINK_IsHalted()
T166C 000:607.507 - 1.060ms returns FALSE
T166C 000:607.535 JLINK_HasError()
T166C 000:608.796 JLINK_IsHalted()
T166C 000:609.860 - 1.104ms returns FALSE
T166C 000:609.935 JLINK_HasError()
T166C 000:611.242 JLINK_IsHalted()
T166C 000:612.006 - 0.777ms returns FALSE
T166C 000:612.028 JLINK_HasError()
T166C 000:614.384 JLINK_IsHalted()
T166C 000:615.507 - 1.139ms returns FALSE
T166C 000:615.535 JLINK_HasError()
T166C 000:616.836 JLINK_IsHalted()
T166C 000:617.527 - 0.701ms returns FALSE
T166C 000:617.546 JLINK_HasError()
T166C 000:618.843 JLINK_IsHalted()
T166C 000:619.999 - 1.174ms returns FALSE
T166C 000:620.032 JLINK_HasError()
T166C 000:621.802 JLINK_IsHalted()
T166C 000:622.738 - 0.953ms returns FALSE
T166C 000:622.766 JLINK_HasError()
T166C 000:624.798 JLINK_IsHalted()
T166C 000:625.851 - 1.070ms returns FALSE
T166C 000:625.879 JLINK_HasError()
T166C 000:628.050 JLINK_IsHalted()
T166C 000:629.203 - 1.170ms returns FALSE
T166C 000:629.232 JLINK_HasError()
T166C 000:630.499 JLINK_IsHalted()
T166C 000:631.565 - 1.082ms returns FALSE
T166C 000:631.592 JLINK_HasError()
T166C 000:633.206 JLINK_IsHalted()
T166C 000:634.040 - 0.843ms returns FALSE
T166C 000:634.058 JLINK_HasError()
T166C 000:635.958 JLINK_IsHalted()
T166C 000:636.921 - 0.979ms returns FALSE
T166C 000:636.966 JLINK_HasError()
T166C 000:638.204 JLINK_IsHalted()
T166C 000:639.346 - 1.159ms returns FALSE
T166C 000:639.375 JLINK_HasError()
T166C 000:640.625 JLINK_IsHalted()
T166C 000:641.683 - 1.074ms returns FALSE
T166C 000:641.711 JLINK_HasError()
T166C 000:643.007 JLINK_IsHalted()
T166C 000:644.115 - 1.144ms returns FALSE
T166C 000:644.180 JLINK_HasError()
T166C 000:646.219 JLINK_IsHalted()
T166C 000:647.276 - 1.074ms returns FALSE
T166C 000:647.306 JLINK_HasError()
T166C 000:648.888 JLINK_IsHalted()
T166C 000:650.034 - 1.163ms returns FALSE
T166C 000:650.064 JLINK_HasError()
T166C 000:653.294 JLINK_IsHalted()
T166C 000:654.183 - 0.907ms returns FALSE
T166C 000:654.214 JLINK_HasError()
T166C 000:655.451 JLINK_IsHalted()
T166C 000:656.472 - 1.039ms returns FALSE
T166C 000:656.501 JLINK_HasError()
T166C 000:657.759 JLINK_IsHalted()
T166C 000:659.147 - 1.405ms returns FALSE
T166C 000:659.176 JLINK_HasError()
T166C 000:661.405 JLINK_IsHalted()
T166C 000:662.521 - 1.135ms returns FALSE
T166C 000:662.553 JLINK_HasError()
T166C 000:664.131 JLINK_IsHalted()
T166C 000:664.809 - 0.691ms returns FALSE
T166C 000:664.834 JLINK_HasError()
T166C 000:666.849 JLINK_IsHalted()
T166C 000:667.757 - 0.951ms returns FALSE
T166C 000:667.837 JLINK_HasError()
T166C 000:669.919 JLINK_IsHalted()
T166C 000:671.103 - 1.228ms returns FALSE
T166C 000:671.193 JLINK_HasError()
T166C 000:673.115 JLINK_IsHalted()
T166C 000:674.269 - 1.199ms returns FALSE
T166C 000:674.350 JLINK_HasError()
T166C 000:676.249 JLINK_IsHalted()
T166C 000:677.102 - 0.895ms returns FALSE
T166C 000:677.180 JLINK_HasError()
T166C 000:679.136 JLINK_IsHalted()
T166C 000:679.887 - 0.780ms returns FALSE
T166C 000:679.949 JLINK_HasError()
T166C 000:682.130 JLINK_IsHalted()
T166C 000:683.002 - 0.905ms returns FALSE
T166C 000:683.078 JLINK_HasError()
T166C 000:685.171 JLINK_IsHalted()
T166C 000:686.168 - 1.034ms returns FALSE
T166C 000:686.241 JLINK_HasError()
T166C 000:688.142 JLINK_IsHalted()
T166C 000:689.013 - 0.981ms returns FALSE
T166C 000:689.166 JLINK_HasError()
T166C 000:691.109 JLINK_IsHalted()
T166C 000:691.969 - 0.888ms returns FALSE
T166C 000:692.028 JLINK_HasError()
T166C 000:700.009 JLINK_IsHalted()
T166C 000:700.870 - 0.883ms returns FALSE
T166C 000:700.910 JLINK_HasError()
T166C 000:789.508 JLINK_IsHalted()
T166C 000:790.137 - 0.638ms returns FALSE
T166C 000:790.155 JLINK_HasError()
T166C 000:796.558 JLINK_IsHalted()
T166C 000:797.387 - 0.845ms returns FALSE
T166C 000:797.413 JLINK_HasError()
T166C 000:798.661 JLINK_IsHalted()
T166C 000:799.650 - 1.007ms returns FALSE
T166C 000:799.682 JLINK_HasError()
T166C 000:801.415 JLINK_IsHalted()
T166C 000:802.166 - 0.758ms returns FALSE
T166C 000:802.182 JLINK_HasError()
T166C 000:803.430 JLINK_IsHalted()
T166C 000:804.042 - 0.621ms returns FALSE
T166C 000:804.061 JLINK_HasError()
T166C 000:809.387 JLINK_IsHalted()
T166C 000:810.175 - 0.800ms returns FALSE
T166C 000:810.197 JLINK_HasError()
T166C 000:811.387 JLINK_IsHalted()
T166C 000:812.110 - 0.730ms returns FALSE
T166C 000:812.127 JLINK_HasError()
T166C 000:815.533 JLINK_IsHalted()
T166C 000:816.437 - 0.918ms returns FALSE
T166C 000:816.461 JLINK_HasError()
T166C 000:817.737 JLINK_IsHalted()
T166C 000:818.412 - 0.693ms returns FALSE
T166C 000:818.441 JLINK_HasError()
T166C 000:829.011 JLINK_IsHalted()
T166C 000:830.004 - 1.001ms returns FALSE
T166C 000:830.020 JLINK_HasError()
T166C 000:903.154 JLINK_IsHalted()
T166C 000:904.199 - 1.053ms returns FALSE
T166C 000:904.216 JLINK_HasError()
T166C 000:909.269 JLINK_IsHalted()
T166C 000:910.105 - 0.862ms returns FALSE
T166C 000:910.144 JLINK_HasError()
T166C 000:930.080 JLINK_IsHalted()
T166C 000:930.541 - 0.472ms returns FALSE
T166C 000:930.561 JLINK_HasError()
T166C 000:932.085 JLINK_IsHalted()
T166C 000:935.386   CPU_ReadMem(2 bytes @ 0x20000000)
T166C 000:936.236 - 4.158ms returns TRUE
T166C 000:936.251 JLINK_ReadReg(R15 (PC))
T166C 000:936.260 - 0.011ms returns 0x20000000
T166C 000:936.268 JLINK_ClrBPEx(BPHandle = 0x00000003)
T166C 000:936.275 - 0.009ms returns 0x00
T166C 000:936.283 JLINK_ReadReg(R0)
T166C 000:936.290 - 0.009ms returns 0x00000000
T166C 000:936.977 JLINK_HasError()
T166C 000:936.990 JLINK_WriteReg(R0, 0x08004000)
T166C 000:936.998 - 0.011ms returns 0
T166C 000:937.007 JLINK_WriteReg(R1, 0x00004000)
T166C 000:937.013 - 0.009ms returns 0
T166C 000:937.024 JLINK_WriteReg(R2, 0x000000FF)
T166C 000:937.032 - 0.011ms returns 0
T166C 000:937.040 JLINK_WriteReg(R3, 0x00000000)
T166C 000:937.046 - 0.009ms returns 0
T166C 000:937.054 JLINK_WriteReg(R4, 0x00000000)
T166C 000:937.061 - 0.009ms returns 0
T166C 000:937.069 JLINK_WriteReg(R5, 0x00000000)
T166C 000:937.075 - 0.009ms returns 0
T166C 000:937.083 JLINK_WriteReg(R6, 0x00000000)
T166C 000:937.089 - 0.009ms returns 0
T166C 000:937.097 JLINK_WriteReg(R7, 0x00000000)
T166C 000:937.103 - 0.009ms returns 0
T166C 000:937.111 JLINK_WriteReg(R8, 0x00000000)
T166C 000:937.118 - 0.009ms returns 0
T166C 000:937.126 JLINK_WriteReg(R9, 0x2000017C)
T166C 000:937.132 - 0.009ms returns 0
T166C 000:937.140 JLINK_WriteReg(R10, 0x00000000)
T166C 000:937.147 - 0.009ms returns 0
T166C 000:937.155 JLINK_WriteReg(R11, 0x00000000)
T166C 000:937.161 - 0.009ms returns 0
T166C 000:937.169 JLINK_WriteReg(R12, 0x00000000)
T166C 000:937.175 - 0.009ms returns 0
T166C 000:937.183 JLINK_WriteReg(R13 (SP), 0x20001000)
T166C 000:937.190 - 0.010ms returns 0
T166C 000:937.198 JLINK_WriteReg(R14, 0x20000001)
T166C 000:937.204 - 0.009ms returns 0
T166C 000:937.212 JLINK_WriteReg(R15 (PC), 0x20000020)
T166C 000:937.219 - 0.009ms returns 0
T166C 000:937.230 JLINK_WriteReg(XPSR, 0x01000000)
T166C 000:937.237 - 0.009ms returns 0
T166C 000:937.245 JLINK_WriteReg(MSP, 0x20001000)
T166C 000:937.251 - 0.009ms returns 0
T166C 000:937.259 JLINK_WriteReg(PSP, 0x20001000)
T166C 000:937.265 - 0.009ms returns 0
T166C 000:937.273 JLINK_WriteReg(CFBP, 0x00000000)
T166C 000:937.280 - 0.009ms returns 0
T166C 000:937.288 JLINK_SetBPEx(Addr = 0x20000000, Type = 0xFFFFFFF2)
T166C 000:937.296 - 0.010ms returns 0x00000004
T166C 000:937.304 JLINK_Go()
T166C 000:937.318   CPU_ReadMem(4 bytes @ 0xE0001000)
T166C 000:940.881 - 3.584ms
T166C 000:940.914 JLINK_IsHalted()
T166C 000:943.692   CPU_ReadMem(2 bytes @ 0x20000000)
T166C 000:944.273 - 3.368ms returns TRUE
T166C 000:944.291 JLINK_ReadReg(R15 (PC))
T166C 000:944.300 - 0.012ms returns 0x20000000
T166C 000:944.309 JLINK_ClrBPEx(BPHandle = 0x00000004)
T166C 000:944.316 - 0.010ms returns 0x00
T166C 000:944.325 JLINK_ReadReg(R0)
T166C 000:944.332 - 0.010ms returns 0x00000001
T166C 000:944.342 JLINK_HasError()
T166C 000:944.351 JLINK_WriteReg(R0, 0x08004000)
T166C 000:944.358 - 0.010ms returns 0
T166C 000:944.367 JLINK_WriteReg(R1, 0x00004000)
T166C 000:944.373 - 0.010ms returns 0
T166C 000:944.382 JLINK_WriteReg(R2, 0x000000FF)
T166C 000:944.389 - 0.010ms returns 0
T166C 000:944.397 JLINK_WriteReg(R3, 0x00000000)
T166C 000:944.404 - 0.010ms returns 0
T166C 000:944.412 JLINK_WriteReg(R4, 0x00000000)
T166C 000:944.419 - 0.010ms returns 0
T166C 000:944.428 JLINK_WriteReg(R5, 0x00000000)
T166C 000:944.434 - 0.009ms returns 0
T166C 000:944.456 JLINK_WriteReg(R6, 0x00000000)
T166C 000:944.462 - 0.022ms returns 0
T166C 000:944.483 JLINK_WriteReg(R7, 0x00000000)
T166C 000:944.489 - 0.009ms returns 0
T166C 000:944.515 JLINK_WriteReg(R8, 0x00000000)
T166C 000:944.522 - 0.009ms returns 0
T166C 000:944.530 JLINK_WriteReg(R9, 0x2000017C)
T166C 000:944.536 - 0.009ms returns 0
T166C 000:944.545 JLINK_WriteReg(R10, 0x00000000)
T166C 000:944.552 - 0.010ms returns 0
T166C 000:944.573 JLINK_WriteReg(R11, 0x00000000)
T166C 000:944.579 - 0.009ms returns 0
T166C 000:944.587 JLINK_WriteReg(R12, 0x00000000)
T166C 000:944.593 - 0.009ms returns 0
T166C 000:944.601 JLINK_WriteReg(R13 (SP), 0x20001000)
T166C 000:944.608 - 0.009ms returns 0
T166C 000:944.616 JLINK_WriteReg(R14, 0x20000001)
T166C 000:944.622 - 0.009ms returns 0
T166C 000:944.630 JLINK_WriteReg(R15 (PC), 0x200000BC)
T166C 000:944.636 - 0.009ms returns 0
T166C 000:944.644 JLINK_WriteReg(XPSR, 0x01000000)
T166C 000:944.651 - 0.009ms returns 0
T166C 000:944.659 JLINK_WriteReg(MSP, 0x20001000)
T166C 000:944.665 - 0.009ms returns 0
T166C 000:944.673 JLINK_WriteReg(PSP, 0x20001000)
T166C 000:944.679 - 0.009ms returns 0
T166C 000:944.687 JLINK_WriteReg(CFBP, 0x00000000)
T166C 000:944.693 - 0.012ms returns 0
T166C 000:944.706 JLINK_SetBPEx(Addr = 0x20000000, Type = 0xFFFFFFF2)
T166C 000:944.714 - 0.010ms returns 0x00000005
T166C 000:944.722 JLINK_Go()
T166C 000:944.735   CPU_ReadMem(4 bytes @ 0xE0001000)
T166C 000:948.812 - 4.098ms
T166C 000:948.829 JLINK_IsHalted()
T166C 000:949.781 - 0.958ms returns FALSE
T166C 000:949.795 JLINK_HasError()
T166C 001:065.811 JLINK_IsHalted()
T166C 001:066.526 - 0.724ms returns FALSE
T166C 001:066.544 JLINK_HasError()
T166C 001:133.757 JLINK_IsHalted()
T166C 001:134.537 - 0.788ms returns FALSE
T166C 001:134.557 JLINK_HasError()
T166C 001:138.033 JLINK_IsHalted()
T166C 001:138.989 - 0.974ms returns FALSE
T166C 001:139.029 JLINK_HasError()
T166C 001:141.017 JLINK_IsHalted()
T166C 001:141.763 - 0.764ms returns FALSE
T166C 001:141.813 JLINK_HasError()
T166C 001:143.719 JLINK_IsHalted()
T166C 001:144.384 - 0.682ms returns FALSE
T166C 001:144.418 JLINK_HasError()
T166C 001:145.762 JLINK_IsHalted()
T166C 001:146.682 - 0.937ms returns FALSE
T166C 001:146.714 JLINK_HasError()
T166C 001:148.701 JLINK_IsHalted()
T166C 001:149.386 - 0.698ms returns FALSE
T166C 001:149.415 JLINK_HasError()
T166C 001:150.720 JLINK_IsHalted()
T166C 001:151.371 - 0.665ms returns FALSE
T166C 001:151.400 JLINK_HasError()
T166C 001:152.722 JLINK_IsHalted()
T166C 001:153.503 - 0.794ms returns FALSE
T166C 001:153.532 JLINK_HasError()
T166C 001:155.519 JLINK_IsHalted()
T166C 001:156.292 - 0.787ms returns FALSE
T166C 001:156.321 JLINK_HasError()
T166C 001:158.306 JLINK_IsHalted()
T166C 001:159.084 - 0.791ms returns FALSE
T166C 001:159.112 JLINK_HasError()
T166C 001:160.562 JLINK_IsHalted()
T166C 001:161.247 - 0.698ms returns FALSE
T166C 001:161.275 JLINK_HasError()
T166C 001:163.274 JLINK_IsHalted()
T166C 001:163.989 - 0.749ms returns FALSE
T166C 001:164.054 JLINK_HasError()
T166C 001:280.386 JLINK_IsHalted()
T166C 001:281.149 - 0.774ms returns FALSE
T166C 001:281.169 JLINK_HasError()
T166C 001:331.407 JLINK_IsHalted()
T166C 001:332.226 - 0.827ms returns FALSE
T166C 001:332.243 JLINK_HasError()
T166C 001:335.381 JLINK_IsHalted()
T166C 001:336.128 - 0.755ms returns FALSE
T166C 001:336.143 JLINK_HasError()
T166C 001:338.198 JLINK_IsHalted()
T166C 001:339.006 - 0.827ms returns FALSE
T166C 001:339.045 JLINK_HasError()
T166C 001:341.040 JLINK_IsHalted()
T166C 001:341.852 - 0.830ms returns FALSE
T166C 001:341.890 JLINK_HasError()
T166C 001:343.432 JLINK_IsHalted()
T166C 001:344.059 - 0.646ms returns FALSE
T166C 001:344.098 JLINK_HasError()
T166C 001:345.486 JLINK_IsHalted()
T166C 001:346.311 - 0.843ms returns FALSE
T166C 001:346.350 JLINK_HasError()
T166C 001:348.348 JLINK_IsHalted()
T166C 001:349.117 - 0.788ms returns FALSE
T166C 001:349.155 JLINK_HasError()
T166C 001:351.374 JLINK_IsHalted()
T166C 001:354.371   CPU_ReadMem(2 bytes @ 0x20000000)
T166C 001:355.062 - 3.707ms returns TRUE
T166C 001:355.101 JLINK_ReadReg(R15 (PC))
T166C 001:355.124 - 0.031ms returns 0x20000000
T166C 001:355.147 JLINK_ClrBPEx(BPHandle = 0x00000005)
T166C 001:355.166 - 0.027ms returns 0x00
T166C 001:355.189 JLINK_ReadReg(R0)
T166C 001:355.207 - 0.026ms returns 0x00000000
T166C 001:356.199 JLINK_HasError()
T166C 001:356.234 JLINK_WriteReg(R0, 0x00000001)
T166C 001:356.257 - 0.031ms returns 0
T166C 001:356.280 JLINK_WriteReg(R1, 0x00004000)
T166C 001:356.298 - 0.026ms returns 0
T166C 001:356.320 JLINK_WriteReg(R2, 0x000000FF)
T166C 001:356.337 - 0.025ms returns 0
T166C 001:356.359 JLINK_WriteReg(R3, 0x00000000)
T166C 001:356.376 - 0.025ms returns 0
T166C 001:356.398 JLINK_WriteReg(R4, 0x00000000)
T166C 001:356.416 - 0.025ms returns 0
T166C 001:356.437 JLINK_WriteReg(R5, 0x00000000)
T166C 001:356.455 - 0.025ms returns 0
T166C 001:356.476 JLINK_WriteReg(R6, 0x00000000)
T166C 001:356.494 - 0.025ms returns 0
T166C 001:356.515 JLINK_WriteReg(R7, 0x00000000)
T166C 001:356.533 - 0.025ms returns 0
T166C 001:356.554 JLINK_WriteReg(R8, 0x00000000)
T166C 001:356.572 - 0.026ms returns 0
T166C 001:356.594 JLINK_WriteReg(R9, 0x2000017C)
T166C 001:356.611 - 0.115ms returns 0
T166C 001:356.732 JLINK_WriteReg(R10, 0x00000000)
T166C 001:356.752 - 0.028ms returns 0
T166C 001:356.774 JLINK_WriteReg(R11, 0x00000000)
T166C 001:356.791 - 0.025ms returns 0
T166C 001:356.813 JLINK_WriteReg(R12, 0x00000000)
T166C 001:356.830 - 0.025ms returns 0
T166C 001:356.851 JLINK_WriteReg(R13 (SP), 0x20001000)
T166C 001:356.870 - 0.027ms returns 0
T166C 001:356.892 JLINK_WriteReg(R14, 0x20000001)
T166C 001:356.909 - 0.025ms returns 0
T166C 001:356.931 JLINK_WriteReg(R15 (PC), 0x20000082)
T166C 001:356.949 - 0.025ms returns 0
T166C 001:356.970 JLINK_WriteReg(XPSR, 0x01000000)
T166C 001:356.987 - 0.025ms returns 0
T166C 001:357.009 JLINK_WriteReg(MSP, 0x20001000)
T166C 001:357.026 - 0.025ms returns 0
T166C 001:357.053 JLINK_WriteReg(PSP, 0x20001000)
T166C 001:357.070 - 0.026ms returns 0
T166C 001:357.092 JLINK_WriteReg(CFBP, 0x00000000)
T166C 001:357.110 - 0.025ms returns 0
T166C 001:357.131 JLINK_SetBPEx(Addr = 0x20000000, Type = 0xFFFFFFF2)
T166C 001:357.152 - 0.028ms returns 0x00000006
T166C 001:357.174 JLINK_Go()
T166C 001:357.210   CPU_ReadMem(4 bytes @ 0xE0001000)
T166C 001:361.063 - 3.910ms
T166C 001:361.106 JLINK_IsHalted()
T166C 001:364.159   CPU_ReadMem(2 bytes @ 0x20000000)
T166C 001:364.875 - 3.790ms returns TRUE
T166C 001:364.924 JLINK_ReadReg(R15 (PC))
T166C 001:364.948 - 0.032ms returns 0x20000000
T166C 001:364.972 JLINK_ClrBPEx(BPHandle = 0x00000006)
T166C 001:364.991 - 0.028ms returns 0x00
T166C 001:365.019 JLINK_ReadReg(R0)
T166C 001:365.037 - 0.027ms returns 0x00000000
T166C 001:440.616 JLINK_WriteMem(0x20000000, 0x180 Bytes, ...)
T166C 001:440.653   Data:  00 BE 0A E0 0D 78 2D 06 68 40 08 24 40 00 00 D3 ...
T166C 001:440.702   CPU_WriteMem(384 bytes @ 0x20000000)
T166C 001:442.976 - 2.395ms returns 0x180
T166C 001:443.111 JLINK_HasError()
T166C 001:443.142 JLINK_WriteReg(R0, 0x08000000)
T166C 001:443.169 - 0.036ms returns 0
T166C 001:443.193 JLINK_WriteReg(R1, 0x007A1200)
T166C 001:443.218 - 0.061ms returns 0
T166C 001:443.276 JLINK_WriteReg(R2, 0x00000002)
T166C 001:443.299 - 0.032ms returns 0
T166C 001:443.322 JLINK_WriteReg(R3, 0x00000000)
T166C 001:443.341 - 0.028ms returns 0
T166C 001:443.363 JLINK_WriteReg(R4, 0x00000000)
T166C 001:443.382 - 0.026ms returns 0
T166C 001:443.404 JLINK_WriteReg(R5, 0x00000000)
T166C 001:443.422 - 0.026ms returns 0
T166C 001:443.445 JLINK_WriteReg(R6, 0x00000000)
T166C 001:443.498 - 0.074ms returns 0
T166C 001:443.540 JLINK_WriteReg(R7, 0x00000000)
T166C 001:443.562 - 0.030ms returns 0
T166C 001:443.585 JLINK_WriteReg(R8, 0x00000000)
T166C 001:443.604 - 0.027ms returns 0
T166C 001:443.627 JLINK_WriteReg(R9, 0x2000017C)
T166C 001:443.645 - 0.026ms returns 0
T166C 001:443.668 JLINK_WriteReg(R10, 0x00000000)
T166C 001:443.687 - 0.027ms returns 0
T166C 001:443.709 JLINK_WriteReg(R11, 0x00000000)
T166C 001:443.727 - 0.091ms returns 0
T166C 001:443.818 JLINK_WriteReg(R12, 0x00000000)
T166C 001:443.837 - 0.027ms returns 0
T166C 001:443.859 JLINK_WriteReg(R13 (SP), 0x20001000)
T166C 001:443.879 - 0.028ms returns 0
T166C 001:443.901 JLINK_WriteReg(R14, 0x20000001)
T166C 001:443.918 - 0.025ms returns 0
T166C 001:443.940 JLINK_WriteReg(R15 (PC), 0x20000054)
T166C 001:443.989 - 0.061ms returns 0
T166C 001:444.019 JLINK_WriteReg(XPSR, 0x01000000)
T166C 001:444.038 - 0.028ms returns 0
T166C 001:444.061 JLINK_WriteReg(MSP, 0x20001000)
T166C 001:444.079 - 0.026ms returns 0
T166C 001:444.101 JLINK_WriteReg(PSP, 0x20001000)
T166C 001:444.119 - 0.025ms returns 0
T166C 001:444.141 JLINK_WriteReg(CFBP, 0x00000000)
T166C 001:444.158 - 0.025ms returns 0
T166C 001:444.181 JLINK_SetBPEx(Addr = 0x20000000, Type = 0xFFFFFFF2)
T166C 001:444.221   CPU_ReadMem(2 bytes @ 0x20000000)
T166C 001:445.162 - 1.005ms returns 0x00000007
T166C 001:445.215 JLINK_Go()
T166C 001:445.244   CPU_WriteMem(2 bytes @ 0x20000000)
T166C 001:446.315   CPU_ReadMem(4 bytes @ 0xE0001000)
T166C 001:450.586 - 5.405ms
T166C 001:450.645 JLINK_IsHalted()
T166C 001:453.674   CPU_ReadMem(2 bytes @ 0x20000000)
T166C 001:454.420 - 3.848ms returns TRUE
T166C 001:454.535 JLINK_ReadReg(R15 (PC))
T166C 001:454.565 - 0.039ms returns 0x20000000
T166C 001:454.589 JLINK_ClrBPEx(BPHandle = 0x00000007)
T166C 001:454.608 - 0.027ms returns 0x00
T166C 001:454.632 JLINK_ReadReg(R0)
T166C 001:454.649 - 0.026ms returns 0x00000000
T166C 001:456.633 JLINK_WriteMem(0x20000180, 0x280 Bytes, ...)
T166C 001:456.674   Data:  C0 09 00 20 9D 01 00 08 FD 30 00 08 D5 2B 00 08 ...
T166C 001:456.729   CPU_WriteMem(640 bytes @ 0x20000180)
T166C 001:459.710 - 3.109ms returns 0x280
T166C 001:459.813 JLINK_WriteMem(0x20000400, 0x180 Bytes, ...)
T166C 001:459.878   Data:  E1 B2 40 1A 10 BD 30 B5 0B 46 01 46 00 20 20 22 ...
T166C 001:459.937   CPU_WriteMem(384 bytes @ 0x20000400)
T166C 001:461.963 - 2.171ms returns 0x180
T166C 001:462.002 JLINK_HasError()
T166C 001:462.023 JLINK_WriteReg(R0, 0x08000000)
T166C 001:462.042 - 0.026ms returns 0
T166C 001:462.060 JLINK_WriteReg(R1, 0x00000400)
T166C 001:462.074 - 0.020ms returns 0
T166C 001:462.090 JLINK_WriteReg(R2, 0x20000180)
T166C 001:462.104 - 0.019ms returns 0
T166C 001:462.120 JLINK_WriteReg(R3, 0x00000000)
T166C 001:462.133 - 0.019ms returns 0
T166C 001:462.150 JLINK_WriteReg(R4, 0x00000000)
T166C 001:462.163 - 0.019ms returns 0
T166C 001:462.179 JLINK_WriteReg(R5, 0x00000000)
T166C 001:462.192 - 0.019ms returns 0
T166C 001:462.208 JLINK_WriteReg(R6, 0x00000000)
T166C 001:462.221 - 0.019ms returns 0
T166C 001:462.237 JLINK_WriteReg(R7, 0x00000000)
T166C 001:462.250 - 0.019ms returns 0
T166C 001:462.266 JLINK_WriteReg(R8, 0x00000000)
T166C 001:462.280 - 0.019ms returns 0
T166C 001:462.296 JLINK_WriteReg(R9, 0x2000017C)
T166C 001:462.309 - 0.019ms returns 0
T166C 001:462.325 JLINK_WriteReg(R10, 0x00000000)
T166C 001:462.338 - 0.019ms returns 0
T166C 001:462.354 JLINK_WriteReg(R11, 0x00000000)
T166C 001:462.370 - 0.022ms returns 0
T166C 001:462.387 JLINK_WriteReg(R12, 0x00000000)
T166C 001:462.400 - 0.019ms returns 0
T166C 001:462.416 JLINK_WriteReg(R13 (SP), 0x20001000)
T166C 001:462.431 - 0.020ms returns 0
T166C 001:462.447 JLINK_WriteReg(R14, 0x20000001)
T166C 001:462.460 - 0.019ms returns 0
T166C 001:462.476 JLINK_WriteReg(R15 (PC), 0x20000108)
T166C 001:462.490 - 0.019ms returns 0
T166C 001:462.506 JLINK_WriteReg(XPSR, 0x01000000)
T166C 001:462.519 - 0.019ms returns 0
T166C 001:462.535 JLINK_WriteReg(MSP, 0x20001000)
T166C 001:462.548 - 0.019ms returns 0
T166C 001:462.564 JLINK_WriteReg(PSP, 0x20001000)
T166C 001:462.577 - 0.019ms returns 0
T166C 001:462.594 JLINK_WriteReg(CFBP, 0x00000000)
T166C 001:462.607 - 0.019ms returns 0
T166C 001:462.623 JLINK_SetBPEx(Addr = 0x20000000, Type = 0xFFFFFFF2)
T166C 001:462.639 - 0.022ms returns 0x00000008
T166C 001:462.656 JLINK_Go()
T166C 001:462.684   CPU_ReadMem(4 bytes @ 0xE0001000)
T166C 001:466.322 - 3.691ms
T166C 001:466.370 JLINK_IsHalted()
T166C 001:467.047 - 0.693ms returns FALSE
T166C 001:467.085 JLINK_HasError()
T166C 001:481.678 JLINK_IsHalted()
T166C 001:484.881   CPU_ReadMem(2 bytes @ 0x20000000)
T166C 001:485.804 - 4.133ms returns TRUE
T166C 001:485.820 JLINK_ReadReg(R15 (PC))
T166C 001:485.830 - 0.013ms returns 0x20000000
T166C 001:485.839 JLINK_ClrBPEx(BPHandle = 0x00000008)
T166C 001:485.846 - 0.010ms returns 0x00
T166C 001:485.855 JLINK_ReadReg(R0)
T166C 001:485.862 - 0.009ms returns 0x00000000
T166C 001:486.474 JLINK_WriteMem(0x20000180, 0x280 Bytes, ...)
T166C 001:486.486   Data:  51 41 32 46 2B 46 03 B0 BD E8 F0 4F 00 F0 4C B9 ...
T166C 001:486.502   CPU_WriteMem(640 bytes @ 0x20000180)
T166C 001:489.318 - 2.852ms returns 0x280
T166C 001:489.336 JLINK_WriteMem(0x20000400, 0x180 Bytes, ...)
T166C 001:489.343   Data:  F8 4D 00 08 20 2A 06 DB CB 17 20 3A 41 FA 02 F0 ...
T166C 001:489.361   CPU_WriteMem(384 bytes @ 0x20000400)
T166C 001:491.458 - 2.131ms returns 0x180
T166C 001:491.475 JLINK_HasError()
T166C 001:491.485 JLINK_WriteReg(R0, 0x08000400)
T166C 001:491.495 - 0.013ms returns 0
T166C 001:491.504 JLINK_WriteReg(R1, 0x00000400)
T166C 001:491.511 - 0.010ms returns 0
T166C 001:491.522 JLINK_WriteReg(R2, 0x20000180)
T166C 001:491.531 - 0.011ms returns 0
T166C 001:491.539 JLINK_WriteReg(R3, 0x00000000)
T166C 001:491.545 - 0.009ms returns 0
T166C 001:491.553 JLINK_WriteReg(R4, 0x00000000)
T166C 001:491.560 - 0.009ms returns 0
T166C 001:491.568 JLINK_WriteReg(R5, 0x00000000)
T166C 001:491.575 - 0.009ms returns 0
T166C 001:491.583 JLINK_WriteReg(R6, 0x00000000)
T166C 001:491.589 - 0.009ms returns 0
T166C 001:491.597 JLINK_WriteReg(R7, 0x00000000)
T166C 001:491.604 - 0.009ms returns 0
T166C 001:491.612 JLINK_WriteReg(R8, 0x00000000)
T166C 001:491.619 - 0.009ms returns 0
T166C 001:491.627 JLINK_WriteReg(R9, 0x2000017C)
T166C 001:491.633 - 0.009ms returns 0
T166C 001:491.641 JLINK_WriteReg(R10, 0x00000000)
T166C 001:491.648 - 0.009ms returns 0
T166C 001:491.656 JLINK_WriteReg(R11, 0x00000000)
T166C 001:491.663 - 0.009ms returns 0
T166C 001:491.671 JLINK_WriteReg(R12, 0x00000000)
T166C 001:491.677 - 0.009ms returns 0
T166C 001:491.687 JLINK_WriteReg(R13 (SP), 0x20001000)
T166C 001:491.695 - 0.011ms returns 0
T166C 001:491.704 JLINK_WriteReg(R14, 0x20000001)
T166C 001:491.710 - 0.009ms returns 0
T166C 001:491.718 JLINK_WriteReg(R15 (PC), 0x20000108)
T166C 001:491.725 - 0.009ms returns 0
T166C 001:491.733 JLINK_WriteReg(XPSR, 0x01000000)
T166C 001:491.740 - 0.009ms returns 0
T166C 001:491.748 JLINK_WriteReg(MSP, 0x20001000)
T166C 001:491.754 - 0.009ms returns 0
T166C 001:491.762 JLINK_WriteReg(PSP, 0x20001000)
T166C 001:491.769 - 0.009ms returns 0
T166C 001:491.777 JLINK_WriteReg(CFBP, 0x00000000)
T166C 001:491.784 - 0.009ms returns 0
T166C 001:491.792 JLINK_SetBPEx(Addr = 0x20000000, Type = 0xFFFFFFF2)
T166C 001:491.800 - 0.010ms returns 0x00000009
T166C 001:491.808 JLINK_Go()
T166C 001:491.822   CPU_ReadMem(4 bytes @ 0xE0001000)
T166C 001:495.806 - 4.013ms
T166C 001:495.836 JLINK_IsHalted()
T166C 001:496.608 - 0.782ms returns FALSE
T166C 001:496.630 JLINK_HasError()
T166C 001:575.726 JLINK_IsHalted()
T166C 001:578.438   CPU_ReadMem(2 bytes @ 0x20000000)
T166C 001:578.964 - 3.249ms returns TRUE
T166C 001:578.985 JLINK_ReadReg(R15 (PC))
T166C 001:578.995 - 0.014ms returns 0x20000000
T166C 001:579.005 JLINK_ClrBPEx(BPHandle = 0x00000009)
T166C 001:579.013 - 0.011ms returns 0x00
T166C 001:579.023 JLINK_ReadReg(R0)
T166C 001:579.030 - 0.010ms returns 0x00000000
T166C 001:579.853 JLINK_WriteMem(0x20000180, 0x280 Bytes, ...)
T166C 001:579.903   Data:  9B FC FF E7 FF E7 FF E7 04 B0 80 BD 80 B5 84 B0 ...
T166C 001:579.928   CPU_WriteMem(640 bytes @ 0x20000180)
T166C 001:582.909 - 3.150ms returns 0x280
T166C 001:583.017 JLINK_WriteMem(0x20000400, 0x180 Bytes, ...)
T166C 001:583.024   Data:  00 00 03 F0 59 FB 4F F4 FA 60 00 F0 17 FD FF E7 ...
T166C 001:583.052   CPU_WriteMem(384 bytes @ 0x20000400)
T166C 001:585.145 - 2.146ms returns 0x180
T166C 001:585.174 JLINK_HasError()
T166C 001:585.184 JLINK_WriteReg(R0, 0x08000800)
T166C 001:585.197 - 0.016ms returns 0
T166C 001:585.206 JLINK_WriteReg(R1, 0x00000400)
T166C 001:585.213 - 0.010ms returns 0
T166C 001:585.221 JLINK_WriteReg(R2, 0x20000180)
T166C 001:585.228 - 0.009ms returns 0
T166C 001:585.236 JLINK_WriteReg(R3, 0x00000000)
T166C 001:585.242 - 0.009ms returns 0
T166C 001:585.251 JLINK_WriteReg(R4, 0x00000000)
T166C 001:585.257 - 0.009ms returns 0
T166C 001:585.266 JLINK_WriteReg(R5, 0x00000000)
T166C 001:585.272 - 0.009ms returns 0
T166C 001:585.281 JLINK_WriteReg(R6, 0x00000000)
T166C 001:585.287 - 0.009ms returns 0
T166C 001:585.295 JLINK_WriteReg(R7, 0x00000000)
T166C 001:585.302 - 0.009ms returns 0
T166C 001:585.310 JLINK_WriteReg(R8, 0x00000000)
T166C 001:585.317 - 0.009ms returns 0
T166C 001:585.325 JLINK_WriteReg(R9, 0x2000017C)
T166C 001:585.331 - 0.009ms returns 0
T166C 001:585.339 JLINK_WriteReg(R10, 0x00000000)
T166C 001:585.346 - 0.009ms returns 0
T166C 001:585.354 JLINK_WriteReg(R11, 0x00000000)
T166C 001:585.361 - 0.009ms returns 0
T166C 001:585.369 JLINK_WriteReg(R12, 0x00000000)
T166C 001:585.375 - 0.009ms returns 0
T166C 001:585.384 JLINK_WriteReg(R13 (SP), 0x20001000)
T166C 001:585.396 - 0.017ms returns 0
T166C 001:585.407 JLINK_WriteReg(R14, 0x20000001)
T166C 001:585.414 - 0.010ms returns 0
T166C 001:585.422 JLINK_WriteReg(R15 (PC), 0x20000108)
T166C 001:585.428 - 0.009ms returns 0
T166C 001:585.437 JLINK_WriteReg(XPSR, 0x01000000)
T166C 001:585.443 - 0.009ms returns 0
T166C 001:585.452 JLINK_WriteReg(MSP, 0x20001000)
T166C 001:585.458 - 0.009ms returns 0
T166C 001:585.466 JLINK_WriteReg(PSP, 0x20001000)
T166C 001:585.473 - 0.009ms returns 0
T166C 001:585.481 JLINK_WriteReg(CFBP, 0x00000000)
T166C 001:585.490 - 0.012ms returns 0
T166C 001:585.499 JLINK_SetBPEx(Addr = 0x20000000, Type = 0xFFFFFFF2)
T166C 001:585.507 - 0.011ms returns 0x0000000A
T166C 001:585.516 JLINK_Go()
T166C 001:585.533   CPU_ReadMem(4 bytes @ 0xE0001000)
T166C 001:588.838 - 3.338ms
T166C 001:588.865 JLINK_IsHalted()
T166C 001:589.517 - 0.659ms returns FALSE
T166C 001:589.532 JLINK_HasError()
T166C 001:648.906 JLINK_IsHalted()
T166C 001:651.969   CPU_ReadMem(2 bytes @ 0x20000000)
T166C 001:652.926 - 4.026ms returns TRUE
T166C 001:652.944 JLINK_ReadReg(R15 (PC))
T166C 001:652.953 - 0.012ms returns 0x20000000
T166C 001:652.962 JLINK_ClrBPEx(BPHandle = 0x0000000A)
T166C 001:652.969 - 0.010ms returns 0x00
T166C 001:652.978 JLINK_ReadReg(R0)
T166C 001:652.985 - 0.009ms returns 0x00000000
T166C 001:653.539 JLINK_WriteMem(0x20000180, 0x280 Bytes, ...)
T166C 001:653.551   Data:  44 F6 E9 31 C0 F6 00 01 02 F0 9C FD FF E7 40 F2 ...
T166C 001:653.568   CPU_WriteMem(640 bytes @ 0x20000180)
T166C 001:656.640 - 3.107ms returns 0x280
T166C 001:656.654 JLINK_WriteMem(0x20000400, 0x180 Bytes, ...)
T166C 001:656.662   Data:  FF E7 9D F8 27 00 0A B0 80 BD 00 00 80 B5 88 B0 ...
T166C 001:656.675   CPU_WriteMem(384 bytes @ 0x20000400)
T166C 001:659.040 - 2.394ms returns 0x180
T166C 001:659.058 JLINK_HasError()
T166C 001:659.067 JLINK_WriteReg(R0, 0x08000C00)
T166C 001:659.077 - 0.012ms returns 0
T166C 001:659.085 JLINK_WriteReg(R1, 0x00000400)
T166C 001:659.092 - 0.010ms returns 0
T166C 001:659.100 JLINK_WriteReg(R2, 0x20000180)
T166C 001:659.107 - 0.009ms returns 0
T166C 001:659.115 JLINK_WriteReg(R3, 0x00000000)
T166C 001:659.122 - 0.009ms returns 0
T166C 001:659.130 JLINK_WriteReg(R4, 0x00000000)
T166C 001:659.136 - 0.009ms returns 0
T166C 001:659.144 JLINK_WriteReg(R5, 0x00000000)
T166C 001:659.151 - 0.009ms returns 0
T166C 001:659.159 JLINK_WriteReg(R6, 0x00000000)
T166C 001:659.165 - 0.009ms returns 0
T166C 001:659.173 JLINK_WriteReg(R7, 0x00000000)
T166C 001:659.180 - 0.009ms returns 0
T166C 001:659.188 JLINK_WriteReg(R8, 0x00000000)
T166C 001:659.195 - 0.009ms returns 0
T166C 001:659.203 JLINK_WriteReg(R9, 0x2000017C)
T166C 001:659.209 - 0.009ms returns 0
T166C 001:659.217 JLINK_WriteReg(R10, 0x00000000)
T166C 001:659.224 - 0.009ms returns 0
T166C 001:659.232 JLINK_WriteReg(R11, 0x00000000)
T166C 001:659.239 - 0.009ms returns 0
T166C 001:659.247 JLINK_WriteReg(R12, 0x00000000)
T166C 001:659.253 - 0.009ms returns 0
T166C 001:659.261 JLINK_WriteReg(R13 (SP), 0x20001000)
T166C 001:659.268 - 0.010ms returns 0
T166C 001:659.277 JLINK_WriteReg(R14, 0x20000001)
T166C 001:659.283 - 0.009ms returns 0
T166C 001:659.291 JLINK_WriteReg(R15 (PC), 0x20000108)
T166C 001:659.298 - 0.009ms returns 0
T166C 001:659.306 JLINK_WriteReg(XPSR, 0x01000000)
T166C 001:659.312 - 0.009ms returns 0
T166C 001:659.321 JLINK_WriteReg(MSP, 0x20001000)
T166C 001:659.327 - 0.009ms returns 0
T166C 001:659.335 JLINK_WriteReg(PSP, 0x20001000)
T166C 001:659.342 - 0.009ms returns 0
T166C 001:659.350 JLINK_WriteReg(CFBP, 0x00000000)
T166C 001:659.356 - 0.009ms returns 0
T166C 001:659.365 JLINK_SetBPEx(Addr = 0x20000000, Type = 0xFFFFFFF2)
T166C 001:659.372 - 0.012ms returns 0x0000000B
T166C 001:659.383 JLINK_Go()
T166C 001:659.403   CPU_ReadMem(4 bytes @ 0xE0001000)
T166C 001:663.111 - 3.744ms
T166C 001:663.139 JLINK_IsHalted()
T166C 001:663.965 - 0.839ms returns FALSE
T166C 001:663.988 JLINK_HasError()
T166C 001:672.761 JLINK_IsHalted()
T166C 001:676.557   CPU_ReadMem(2 bytes @ 0x20000000)
T166C 001:677.148 - 4.404ms returns TRUE
T166C 001:677.176 JLINK_ReadReg(R15 (PC))
T166C 001:677.188 - 0.015ms returns 0x20000000
T166C 001:677.198 JLINK_ClrBPEx(BPHandle = 0x0000000B)
T166C 001:677.206 - 0.011ms returns 0x00
T166C 001:677.215 JLINK_ReadReg(R0)
T166C 001:677.222 - 0.010ms returns 0x00000000
T166C 001:678.054 JLINK_WriteMem(0x20000180, 0x280 Bytes, ...)
T166C 001:678.074   Data:  3B 98 69 46 08 60 44 F6 A7 51 C0 F6 00 01 44 F6 ...
T166C 001:678.098   CPU_WriteMem(640 bytes @ 0x20000180)
T166C 001:681.092 - 3.056ms returns 0x280
T166C 001:681.124 JLINK_WriteMem(0x20000400, 0x180 Bytes, ...)
T166C 001:681.132   Data:  5B 50 C0 F6 00 00 44 F6 66 51 C0 F6 00 01 44 F6 ...
T166C 001:681.152   CPU_WriteMem(384 bytes @ 0x20000400)
T166C 001:683.745 - 2.664ms returns 0x180
T166C 001:683.839 JLINK_HasError()
T166C 001:683.853 JLINK_WriteReg(R0, 0x08001000)
T166C 001:683.866 - 0.016ms returns 0
T166C 001:683.876 JLINK_WriteReg(R1, 0x00000400)
T166C 001:683.899 - 0.026ms returns 0
T166C 001:683.908 JLINK_WriteReg(R2, 0x20000180)
T166C 001:683.931 - 0.026ms returns 0
T166C 001:683.941 JLINK_WriteReg(R3, 0x00000000)
T166C 001:683.948 - 0.010ms returns 0
T166C 001:683.958 JLINK_WriteReg(R4, 0x00000000)
T166C 001:683.965 - 0.010ms returns 0
T166C 001:683.975 JLINK_WriteReg(R5, 0x00000000)
T166C 001:683.982 - 0.010ms returns 0
T166C 001:684.010 JLINK_WriteReg(R6, 0x00000000)
T166C 001:684.017 - 0.009ms returns 0
T166C 001:684.025 JLINK_WriteReg(R7, 0x00000000)
T166C 001:684.031 - 0.009ms returns 0
T166C 001:684.040 JLINK_WriteReg(R8, 0x00000000)
T166C 001:684.046 - 0.009ms returns 0
T166C 001:684.056 JLINK_WriteReg(R9, 0x2000017C)
T166C 001:684.062 - 0.009ms returns 0
T166C 001:684.070 JLINK_WriteReg(R10, 0x00000000)
T166C 001:684.077 - 0.009ms returns 0
T166C 001:684.085 JLINK_WriteReg(R11, 0x00000000)
T166C 001:684.092 - 0.009ms returns 0
